
T4554 000:001 SEGGER J-Link V6.16c Log File (0006ms, 0006ms total)
T4554 000:001 DLL Compiled: Jun 16 2017 18:14:49 (0008ms, 0008ms total)
T4554 000:001 Logging started @ 2017-10-29 12:29 (0011ms, 0011ms total)
T4554 000:013 JLINK_SetWarnOutHandler(...) (0002ms, 0014ms total)
T4554 000:016 JLINK_OpenEx(...)
Firmware: J-Link OpenSDA 2 compiled May  6 2016 11:04:17
Hardware: V1.00
S/N: 621000000WEBSRV Webserver running on local port 19080 (0024ms, 0039ms total)
T4554 000:016   returns O.K. (0027ms, 0042ms total)
T4554 000:044 JLINK_GetEmuCaps()  returns 0xB86A5A33 (0003ms, 0046ms total)
T4554 000:047 JLINK_TIF_GetAvailable(...) (0002ms, 0048ms total)
T4554 000:050 JLINK_SetErrorOutHandler(...) (0002ms, 0051ms total)
T4554 000:053 JLINK_ExecCommand("ProjectFile = "H:\year3\COMP3215\exploreembedded\JLinkSettings.ini"", ...).   returns 0x00 (0084ms, 0136ms total)
T4554 000:138 JLINK_ExecCommand("Device = MKW41Z512xxx4", ...). Device "MKW41Z512XXX4" selected.  returns 0x00 (0003ms, 0142ms total)
T4554 000:144 JLINK_ExecCommand("DisableConnectionTimeout", ...).   returns 0x01 (0001ms, 0146ms total)
T4554 000:148 JLINK_GetHardwareVersion()  returns 0x2710 (0002ms, 0149ms total)
T4554 000:151 JLINK_GetDLLVersion()  returns 61603 (0002ms, 0152ms total)
T4554 000:154 JLINK_GetFirmwareString(...) (0002ms, 0155ms total)
T4554 000:157 JLINK_GetDLLVersion()  returns 61603 (0002ms, 0158ms total)
T4554 000:160 JLINK_GetCompileDateTime() (0001ms, 0160ms total)
T4554 000:162 JLINK_GetFirmwareString(...) (0002ms, 0163ms total)
T4554 000:165 JLINK_GetHardwareVersion()  returns 0x2710 (0003ms, 0167ms total)
T4554 000:169 JLINK_TIF_Select(JLINKARM_TIF_SWD)  returns 0x00 (0003ms, 0171ms total)
T4554 000:173 JLINK_SetSpeed(5000) (0002ms, 0174ms total)
T4554 000:176 JLINK_GetId()Executing InitTarget() >0x10B TIF> >0x0D TIF> >0x28 TIF> >0x0D TIF> >0x28 TIF> >0x0D TIF> >0x28 TIF> >0x0D TIF> >0x28 TIF> >0x0D TIF> >0x21 TIF> >0x0D TIF> >0x21 TIF> >0x0D TIF> >0x28 TIF> >0x0D TIF> >0x21 TIF> >0x0D TIF> >0x21 TIF> >0x0D TIF> >0x21 TIF> >0x0D TIF> >0x21 TIF> >0x0D TIF> >0x21 TIF> >0x0D TIF> >0x21 TIF> >0x0D TIF> >0x21 TIF> >0x0D TIF> >0x21 TIF> >0x0D TIF> >0x21 TIF> >0x0D TIF> >0x21 TIF> >0x0D TIF> >0x21 TIF> >0x0D TIF> >0x21 TIF> >0x0D TIF> >0x21 TIF>
 >0x0D TIF> >0x21 TIF> >0x0D TIF> >0x21 TIF> >0x0D TIF> >0x21 TIF> >0x0D TIF> >0x21 TIF> >0x0D TIF> >0x21 TIF> >0x0D TIF> >0x21 TIF> >0x0D TIF> >0x21 TIF> >0x0D TIF> >0x21 TIF> >0x0D TIF> >0x21 TIF> >0x0D TIF> >0x21 TIF> >0x0D TIF> >0x21 TIF> >0x0D TIF> >0x21 TIF> >0x0D TIF> >0x21 TIF> >0x0D TIF> >0x21 TIF> >0x0D TIF> >0x21 TIF> >0x0D TIF> >0x28 TIF> >0x0D TIF> >0x28 TIF> >0x0D TIF> >0x28 TIF> >0x0D TIF> >0x21 TIF> >0x0D TIF> >0x21 TIF> >0x10B TIF>Found SW-DP with ID 0x0BC11477 >0x0D TIF> >0x28 TIF>
 >0x0D TIF> >0x28 TIF> >0x0D TIF> >0x28 TIF> >0x0D TIF> >0x28 TIF> >0x0D TIF> >0x21 TIF> >0x0D TIF> >0x28 TIF>Scanning APs, stopping at first AHB-AP found. >0x0D TIF> >0x28 TIF> >0x0D TIF> >0x21 TIF> >0x0D TIF> >0x21 TIF>AP[0] IDR: 0x04770031 (AHB-AP) >0x0D TIF> >0x28 TIF> >0x0D TIF> >0x21 TIF> >0x0D TIF> >0x21 TIF>AHB-AP ROM: 0xF0002000 (Base addr. of first ROM table) >0x0D TIF> >0x28 TIF> >0x0D TIF> >0x28 TIF> >0x0D TIF> >0x28 TIF> >0x0D TIF> >0x21 TIF> >0x0D TIF> >0x21 TIF> >0x0D TIF> >0x28 TIF>
 >0x0D TIF> >0x21 TIF> >0x0D TIF> >0x21 TIF>CPUID reg: 0x410CC601. Implementer code: 0x41 (ARM)Found Cortex-M0 r0p1, Little endian. -- CPU_ReadMem(4 bytes @ 0xE000EDF0) -- CPU_WriteMem(4 bytes @ 0xE000EDF0) -- CPU_ReadMem(4 bytes @ 0xE0002000)FPUnit: 2 code (BP) slots and 0 literal slots -- CPU_ReadMem(4 bytes @ 0xE000EDFC) -- CPU_WriteMem(4 bytes @ 0xE000EDFC) -- CPU_ReadMem(4 bytes @ 0xE0001000) -- CPU_WriteMem(4 bytes @ 0xE0001000)CoreSight components:ROMTbl[0] @ F0002000
 -- CPU_ReadMem(16 bytes @ 0xF0002000) -- CPU_ReadMem(16 bytes @ 0xF0000FF0) -- CPU_ReadMem(16 bytes @ 0xF0000FE0)ROMTbl[0][0]: F0000000, CID: B105900D, PID: 001BB932 MTB-M0+ -- CPU_ReadMem(16 bytes @ 0xF0001FF0) -- CPU_ReadMem(16 bytes @ 0xF0001FE0)ROMTbl[0][1]: F0001000, CID: B105900D, PID: 0008E000 MTBDWT -- CPU_ReadMem(16 bytes @ 0xE00FFFF0) -- CPU_ReadMem(16 bytes @ 0xE00FFFE0)ROMTbl[0][2]: E00FF000, CID: B105100D, PID: 000BB4C0 ROM TableROMTbl[1] @ E00FF000 -- CPU_ReadMem(16 bytes @ 0xE00FF000)
 -- CPU_ReadMem(16 bytes @ 0xE000EFF0) -- CPU_ReadMem(16 bytes @ 0xE000EFE0)ROMTbl[1][0]: E000E000, CID: B105E00D, PID: 000BB008 SCS -- CPU_ReadMem(16 bytes @ 0xE0001FF0) -- CPU_ReadMem(16 bytes @ 0xE0001FE0)ROMTbl[1][1]: E0001000, CID: B105E00D, PID: 000BB00A DWT -- CPU_ReadMem(16 bytes @ 0xE0002FF0) -- CPU_ReadMem(16 bytes @ 0xE0002FE0)ROMTbl[1][2]: E0002000, CID: B105E00D, PID: 000BB00B FPB >0x0D TIF> >0x21 TIF>  returns 0x0BC11477 (0203ms, 0378ms total)
T4554 000:380 JLINK_GetDLLVersion()  returns 61603 (0002ms, 0381ms total)
T4554 000:382 JLINK_CORE_GetFound()  returns 0x60000FF (0003ms, 0384ms total)
T4554 000:386 JLINK_GetDebugInfo(0x100 = JLINKARM_ROM_TABLE_ADDR_INDEX) -- Value=0xF0002000  returns 0x00 (0004ms, 0389ms total)
T4554 000:390 JLINK_GetDebugInfo(0x100 = JLINKARM_ROM_TABLE_ADDR_INDEX) -- Value=0xF0002000  returns 0x00 (0004ms, 0393ms total)
T4554 000:395 JLINK_GetDebugInfo(0x101 = JLINKARM_DEBUG_INFO_ETM_ADDR_INDEX) -- Value=0x00000000  returns 0x00 (0003ms, 0397ms total)
T4554 000:400 JLINK_ReadMemEx(0xE0041FF0, 0x0010 Bytes, ..., Flags = 0x02000004) -- CPU_ReadMem(16 bytes @ 0xE0041FF0) - Data: 00 00 00 00 00 00 00 00 00 00 00 00 00 00 00 00  returns 0x10 (0005ms, 0404ms total)
T4554 000:406 JLINK_GetDebugInfo(0x102 = JLINKARM_DEBUG_INFO_MTB_ADDR_INDEX) -- Value=0xF0000000  returns 0x00 (0003ms, 0408ms total)
T4554 000:410 JLINK_CORE_GetFound()  returns 0x60000FF (0003ms, 0412ms total)
T4554 000:414 JLINK_GetDebugInfo(0x103 = JLINKARM_DEBUG_INFO_TPIU_ADDR_INDEX) -- Value=0x00000000  returns 0x00 (0003ms, 0416ms total)
T4554 000:418 JLINK_ReadMemEx(0xE0040FF0, 0x0010 Bytes, ..., Flags = 0x02000004) -- CPU_ReadMem(16 bytes @ 0xE0040FF0) - Data: 00 00 00 00 00 00 00 00 00 00 00 00 00 00 00 00  returns 0x10 (0005ms, 0422ms total)
T4554 000:424 JLINK_GetDebugInfo(0x104 = JLINKARM_DEBUG_INFO_ITM_ADDR_INDEX) -- Value=0xE0000000  returns 0x00 (0004ms, 0427ms total)
T4554 000:429 JLINK_GetDebugInfo(0x105 = JLINKARM_DEBUG_INFO_DWT_ADDR_INDEX) -- Value=0xE0001000  returns 0x00 (0003ms, 0431ms total)
T4554 000:433 JLINK_GetDebugInfo(0x106 = JLINKARM_DEBUG_INFO_FPB_ADDR_INDEX) -- Value=0xE0002000  returns 0x00 (0004ms, 0436ms total)
T4554 000:438 JLINK_GetDebugInfo(0x107 = JLINKARM_DEBUG_INFO_NVIC_ADDR_INDEX) -- Value=0xE000E000  returns 0x00 (0003ms, 0440ms total)
T4554 000:442 JLINK_GetDebugInfo(0x10C = JLINKARM_DEBUG_INFO_DBG_ADDR_INDEX) -- Value=0xE000EDF0  returns 0x00 (0003ms, 0444ms total)
T4554 000:446 JLINK_ReadMemU32(0xE000ED00, 0x0001 Items, ...) -- CPU_ReadMem(4 bytes @ 0xE000ED00) - Data: 01 C6 0C 41  returns 0x01 (0006ms, 0451ms total)
T4554 000:453 JLINK_GetDebugInfo(0x10F = JLINKARM_DEBUG_INFO_HAS_CORTEX_M_SECURITY_EXT_INDEX) -- Value=0x00000000  returns 0x00 (0003ms, 0455ms total)
T4554 000:457 JLINK_SetResetType(JLINKARM_CM3_RESET_TYPE_NORMAL)  returns JLINKARM_CM3_RESET_TYPE_NORMAL (0003ms, 0459ms total)
T4554 000:461 JLINK_Reset() -- CPU is running -- CPU_WriteMem(4 bytes @ 0xE000EDF0) -- CPU is running -- CPU_WriteMem(4 bytes @ 0xE000EDFC) >0x35 TIF>Setting AIRCR.SYSRESETREQ -- CPU is running -- CPU_WriteMem(4 bytes @ 0xE000ED0C) >0x0D TIF> >0x28 TIF> -- CPU_ReadMem(4 bytes @ 0xE000ED0C) -- CPU_ReadMem(4 bytes @ 0xE000EDF0) -- CPU_ReadMem(4 bytes @ 0xE000EDF0) -- CPU_ReadMem(4 bytes @ 0xE000EDF0) -- CPU is running -- CPU_WriteMem(4 bytes @ 0xE000EDF0) -- CPU is running
 -- CPU_WriteMem(4 bytes @ 0xE000EDFC) -- CPU_ReadMem(4 bytes @ 0xE000EDF0)Executing AfterResetTarget() >0x0D TIF> >0x28 TIF> >0x0D TIF> >0x28 TIF> >0x0D TIF> >0x28 TIF> >0x0D TIF> >0x28 TIF> >0x0D TIF> >0x28 TIF> >0x0D TIF> >0x21 TIF> >0x0D TIF> >0x21 TIF> >0x0D TIF> >0x28 TIF> >0x0D TIF> >0x28 TIF> >0x0D TIF> >0x21 TIF> >0x0D TIF> >0x30 TIF> >0x0D TIF> >0x21 TIF> -- CPU_WriteMem(4 bytes @ 0xE0002000) -- CPU_ReadMem(4 bytes @ 0xE000EDFC) -- CPU_ReadMem(4 bytes @ 0xE0001000)
 -- CPU_WriteMem(4 bytes @ 0xE0001000) (0125ms, 0585ms total)
T4554 000:587 JLINK_ReadReg(R15 (PC))  returns 0x00000214 (0003ms, 0588ms total)
T4554 000:590 JLINK_ReadReg(XPSR)  returns 0x61000000 (0003ms, 0591ms total)
T4554 000:594 JLINK_Halt()  returns 0x00 (0003ms, 0595ms total)
T4554 000:598 JLINK_ReadMemU32(0xE000EDF0, 0x0001 Items, ...) -- CPU_ReadMem(4 bytes @ 0xE000EDF0) - Data: 03 00 03 00  returns 0x01 (0005ms, 0601ms total)
T4554 000:604 JLINK_WriteU32(0xE000EDF0, 0xA05F0003) -- CPU_WriteMem(4 bytes @ 0xE000EDF0)  returns 0x00 (0004ms, 0606ms total)
T4554 000:609 JLINK_WriteU32(0xE000EDFC, 0x01000000) -- CPU_WriteMem(4 bytes @ 0xE000EDFC)  returns 0x00 (0004ms, 0611ms total)
T4554 000:614 JLINK_GetHWStatus(...)  returns 0x00 (0003ms, 0615ms total)
T4554 000:617 JLINK_GetNumBPUnits(Type = 0xFFFFFF00)  returns 0x02 (0004ms, 0619ms total)
T4554 000:621 JLINK_GetNumBPUnits(Type = 0xF0)  returns 0x2000 (0003ms, 0622ms total)
T4554 000:625 JLINK_GetNumWPUnits()  returns 0x02 (0002ms, 0625ms total)
T4554 000:628 JLINK_GetSpeed()  returns 0x595 (0003ms, 0629ms total)
T4554 000:631 JLINK_ReadMemU32(0xE000E004, 0x0001 Items, ...) -- CPU_ReadMem(4 bytes @ 0xE000E004) - Data: 00 00 00 00  returns 0x01 (0006ms, 0635ms total)
T4554 000:638 JLINK_ReadReg(R15 (PC))  returns 0x00000214 (0003ms, 0639ms total)
T4554 000:642 JLINK_ReadReg(XPSR)  returns 0x61000000 (0002ms, 0642ms total)
T4554 000:657 JLINK_ReadMemU32(0xF000000C, 0x0001 Items, ...) -- CPU_ReadMem(4 bytes @ 0xF000000C) - Data: 00 80 FF 1F  returns 0x01 (0006ms, 0649ms total)
T4554 000:736 JLINK_SetResetType(JLINKARM_CM3_RESET_TYPE_NORMAL)  returns JLINKARM_CM3_RESET_TYPE_NORMAL (0003ms, 0653ms total)
T4554 000:740 JLINK_Reset() -- CPU_WriteMem(4 bytes @ 0xE000EDF0) -- CPU_WriteMem(4 bytes @ 0xE000EDFC) >0x35 TIF>Setting AIRCR.SYSRESETREQ -- CPU_WriteMem(4 bytes @ 0xE000ED0C) >0x0D TIF> >0x28 TIF> -- CPU_ReadMem(4 bytes @ 0xE000ED0C) -- CPU_ReadMem(4 bytes @ 0xE000EDF0) -- CPU_ReadMem(4 bytes @ 0xE000EDF0) -- CPU_ReadMem(4 bytes @ 0xE000EDF0) -- CPU_WriteMem(4 bytes @ 0xE000EDF0) -- CPU_WriteMem(4 bytes @ 0xE000EDFC) -- CPU_ReadMem(4 bytes @ 0xE000EDF0)Executing AfterResetTarget() >0x0D TIF>
 >0x28 TIF> >0x0D TIF> >0x28 TIF> >0x0D TIF> >0x28 TIF> >0x0D TIF> >0x28 TIF> >0x0D TIF> >0x28 TIF> >0x0D TIF> >0x21 TIF> >0x0D TIF> >0x21 TIF> >0x0D TIF> >0x28 TIF> >0x0D TIF> >0x28 TIF> >0x0D TIF> >0x21 TIF> >0x0D TIF> >0x30 TIF> >0x0D TIF> >0x21 TIF> -- CPU_WriteMem(4 bytes @ 0xE0002000) -- CPU_ReadMem(4 bytes @ 0xE000EDFC) -- CPU_ReadMem(4 bytes @ 0xE0001000) -- CPU_WriteMem(4 bytes @ 0xE0001000) (0120ms, 0774ms total)
T4554 000:862 JLINK_ReadReg(R15 (PC))  returns 0x00000214 (0003ms, 0779ms total)
T4554 000:867 JLINK_ReadReg(XPSR)  returns 0x61000000 (0002ms, 0783ms total)
T4554 000:877 JLINK_ReadMemEx(0x00000114, 0x003C Bytes, ..., Flags = 0x02000000) -- CPU_ReadMem(128 bytes @ 0x00000100) -- Updating C cache (128 bytes @ 0x00000100) -- Read from C cache (60 bytes @ 0x00000114) - Data: 30 C1 01 D5 04 68 0C 60 70 47 00 00 00 23 00 24 ...  returns 0x3C (0008ms, 0791ms total)
T4554 000:886 JLINK_ReadMemEx(0x00000150, 0x003C Bytes, ..., Flags = 0x02000000) -- CPU_ReadMem(64 bytes @ 0x00000180) -- Updating C cache (64 bytes @ 0x00000180) -- Read from C cache (60 bytes @ 0x00000150) - Data: 7F FA 00 F0 0C F9 03 B4 FF F7 F2 FF 03 BC 00 F0 ...  returns 0x3C (0007ms, 0799ms total)
T4554 000:894 JLINK_ReadMemEx(0x0000018C, 0x003C Bytes, ..., Flags = 0x02000000) -- CPU_ReadMem(64 bytes @ 0x000001C0) -- Updating C cache (64 bytes @ 0x000001C0) -- Read from C cache (60 bytes @ 0x0000018C) - Data: EF F3 10 80 72 B6 70 47 80 F3 10 88 70 47 EF F3 ...  returns 0x3C (0009ms, 0809ms total)
T4554 000:904 JLINK_ReadMemEx(0x000001C8, 0x003C Bytes, ..., Flags = 0x02000000) -- CPU_ReadMem(64 bytes @ 0x00000200) -- Updating C cache (64 bytes @ 0x00000200) -- Read from C cache (60 bytes @ 0x000001C8) - Data: A9 46 B2 46 BB 46 80 F3 09 88 20 38 F0 C8 18 47 ...  returns 0x3C (0008ms, 0818ms total)
T4554 000:913 JLINK_ReadMemEx(0x00000204, 0x003C Bytes, ..., Flags = 0x02000000) -- Read from C cache (60 bytes @ 0x00000204) - Data: 03 E0 21 78 29 70 64 1C 6D 1C 76 1E F9 D2 70 BD ...  returns 0x3C (0005ms, 0824ms total)
T33E8 001:551 JLINK_ReadMemEx(0x00000214, 0x0002 Bytes, ..., Flags = 0x02000000) -- Read from C cache (2 bytes @ 0x00000214) - Data: 72 B6  returns 0x02 (0005ms, 0830ms total)
T33E8 001:557 JLINK_SetBPEx(Addr = 0x00000650, Type = 0xFFFFFFF2)  returns 0x00000001 (0002ms, 0833ms total)
T33E8 001:560 JLINK_ReadMemEx(0xF0000000, 0x0008 Bytes, ..., Flags = 0x02000004) -- CPU_ReadMem(8 bytes @ 0xF0000000) - Data: E4 F3 01 00 9F 00 00 00  returns 0x08 (0005ms, 0839ms total)
T33E8 001:566 JLINK_Go() -- CPU_WriteMem(4 bytes @ 0xE0002000) -- CPU_ReadMem(4 bytes @ 0xE0001000) -- CPU_WriteMem(4 bytes @ 0xE0001000) -- CPU_WriteMem(4 bytes @ 0xE0002008) -- CPU_WriteMem(4 bytes @ 0xE000200C) -- CPU_WriteMem(4 bytes @ 0xE0001004) (0012ms, 0852ms total)
T33E8 001:680 JLINK_IsHalted()  returns TRUE (0009ms, 0862ms total)
T33E8 001:690 JLINK_Halt()  returns 0x00 (0002ms, 0855ms total)
T33E8 001:694 JLINK_IsHalted()  returns TRUE (0002ms, 0859ms total)
T33E8 001:697 JLINK_IsHalted()  returns TRUE (0003ms, 0860ms total)
T33E8 001:701 JLINK_IsHalted()  returns TRUE (0002ms, 0859ms total)
T33E8 001:704 JLINK_ReadReg(R15 (PC))  returns 0x00000650 (0003ms, 0860ms total)
T33E8 001:708 JLINK_ReadReg(XPSR)  returns 0x01000000 (0003ms, 0864ms total)
T33E8 001:712 JLINK_ClrBPEx(BPHandle = 0x00000001)  returns 0x00 (0002ms, 0867ms total)
T33E8 001:715 JLINK_ReadMemU32(0xE000ED30, 0x0001 Items, ...) -- CPU_ReadMem(4 bytes @ 0xE000ED30) - Data: 02 00 00 00  returns 0x01 (0005ms, 0873ms total)
T33E8 001:721 JLINK_ReadMemU32(0xE0001028, 0x0001 Items, ...) -- CPU_ReadMem(4 bytes @ 0xE0001028) - Data: 00 00 00 00  returns 0x01 (0006ms, 0880ms total)
T33E8 001:727 JLINK_ReadMemU32(0xE0001038, 0x0001 Items, ...) -- CPU_ReadMem(4 bytes @ 0xE0001038) - Data: 00 00 00 00  returns 0x01 (0006ms, 0886ms total)
T33E8 001:734 JLINK_ReadReg(R0)  returns 0x1FFF91C0 (0002ms, 0889ms total)
T33E8 001:737 JLINK_ReadReg(R1)  returns 0x1FFF91C0 (0002ms, 0892ms total)
T33E8 001:740 JLINK_ReadReg(R2)  returns 0x1FFF91C0 (0004ms, 0897ms total)
T33E8 001:745 JLINK_ReadReg(R3)  returns 0x1FFF91C0 (0002ms, 0900ms total)
T33E8 001:748 JLINK_ReadReg(R4)  returns 0x00002028 (0003ms, 0904ms total)
T33E8 001:752 JLINK_ReadReg(R5)  returns 0x1FFF9160 (0002ms, 0907ms total)
T33E8 001:755 JLINK_ReadReg(R6)  returns 0x00000000 (0003ms, 0911ms total)
T33E8 001:760 JLINK_ReadReg(R7)  returns 0x00000000 (0002ms, 0915ms total)
T33E8 001:763 JLINK_ReadReg(R8)  returns 0x00000000 (0003ms, 0919ms total)
T33E8 001:767 JLINK_ReadReg(R9)  returns 0x00000000 (0003ms, 0923ms total)
T33E8 001:771 JLINK_ReadReg(R10)  returns 0x00002028 (0003ms, 0927ms total)
T33E8 001:775 JLINK_ReadReg(R11)  returns 0x00002028 (0003ms, 0931ms total)
T33E8 001:779 JLINK_ReadReg(R12)  returns 0x00000000 (0003ms, 0935ms total)
T33E8 001:783 JLINK_ReadReg(R13 (SP))  returns 0x1FFF95C0 (0002ms, 0938ms total)
T33E8 001:786 JLINK_ReadReg(R14)  returns 0x00000153 (0003ms, 0942ms total)
T33E8 001:790 JLINK_ReadReg(R15 (PC))  returns 0x00000650 (0003ms, 0946ms total)
T33E8 001:794 JLINK_ReadReg(XPSR)  returns 0x01000000 (0002ms, 0949ms total)
T33E8 001:797 JLINK_ReadReg(MSP)  returns 0x1FFF95C0 (0003ms, 0953ms total)
T33E8 001:801 JLINK_ReadReg(PSP)  returns 0x1FFF8738 (0002ms, 0956ms total)
T33E8 001:804 JLINK_ReadReg(CFBP)  returns 0x00000000 (0003ms, 0960ms total)
T4554 001:817 JLINK_ReadMemEx(0x00000550, 0x003C Bytes, ..., Flags = 0x02000000) -- CPU_ReadMem(128 bytes @ 0x00000540) -- Updating C cache (128 bytes @ 0x00000540) -- Read from C cache (60 bytes @ 0x00000550) - Data: 00 2B 00 D5 49 42 70 47 63 46 5B 10 00 D3 40 42 ...  returns 0x3C (0008ms, 0969ms total)
T4554 001:826 JLINK_ReadMemEx(0x0000058C, 0x003C Bytes, ..., Flags = 0x02000000) -- CPU_ReadMem(64 bytes @ 0x000005C0) -- Updating C cache (64 bytes @ 0x000005C0) -- Read from C cache (60 bytes @ 0x0000058C) - Data: 1E 4C E3 58 9B 00 D0 50 88 00 1B 4A 10 58 80 30 ...  returns 0x3C (0008ms, 0978ms total)
T4554 001:835 JLINK_ReadMemEx(0x000005C8, 0x003C Bytes, ..., Flags = 0x02000000) -- CPU_ReadMem(64 bytes @ 0x00000600) -- Updating C cache (64 bytes @ 0x00000600) -- Read from C cache (60 bytes @ 0x000005C8) - Data: 0F 4B 9B 5C 01 22 9A 40 10 43 8A 00 0D 4B 9A 58 ...  returns 0x3C (0008ms, 0987ms total)
T4554 001:844 JLINK_ReadMemEx(0x00000610, 0x003C Bytes, ..., Flags = 0x02000000) -- CPU_ReadMem(64 bytes @ 0x00000640) -- Updating C cache (64 bytes @ 0x00000640) -- Read from C cache (60 bytes @ 0x00000610) - Data: 10 B5 FF F7 BB FD 04 46 01 F0 E0 FA 00 28 03 D0 ...  returns 0x3C (0008ms, 0996ms total)
T4554 001:852 JLINK_ReadMemEx(0x0000064C, 0x003C Bytes, ..., Flags = 0x02000000) -- CPU_ReadMem(64 bytes @ 0x00000680) -- Updating C cache (64 bytes @ 0x00000680) -- Read from C cache (60 bytes @ 0x0000064C) - Data: 1D 46 F8 E7 1C B5 FF F7 C7 FE FF F7 89 FF 00 20 ...  returns 0x3C (0008ms, 1004ms total)
T33E8 011:638 JLINK_ReadMemEx(0x00000650, 0x0002 Bytes, ..., Flags = 0x02000000) -- Read from C cache (2 bytes @ 0x00000650) - Data: 1C B5  returns 0x02 (0006ms, 1011ms total)
T33E8 011:645 JLINK_ReadMemEx(0xF0000000, 0x0008 Bytes, ..., Flags = 0x02000004) -- CPU_ReadMem(8 bytes @ 0xF0000000) - Data: E4 F3 01 00 9F 00 00 00  returns 0x08 (0005ms, 1017ms total)
T33E8 011:651 JLINK_Step() -- Read from C cache (2 bytes @ 0x00000650) -- CPU_ReadMem(4 bytes @ 0xE000ED18) -- CPU_WriteMem(4 bytes @ 0xE000ED18) -- CPU_ReadMem(4 bytes @ 0xE000ED18) -- CPU_WriteMem(4 bytes @ 0xE000ED18) -- CPU_ReadMem(4 bytes @ 0xE0001004) -- CPU_WriteMem(16 bytes @ 0x1FFF95B0) -- Simulated  returns 0x00 (0013ms, 1031ms total)
T33E8 011:665 JLINK_ReadReg(R15 (PC))  returns 0x00000652 (0004ms, 1036ms total)
T33E8 011:669 JLINK_ReadReg(XPSR)  returns 0x01000000 (0002ms, 1038ms total)
T33E8 011:672 JLINK_ReadReg(R0)  returns 0x1FFF91C0 (0003ms, 1042ms total)
T33E8 011:676 JLINK_ReadReg(R1)  returns 0x1FFF91C0 (0002ms, 1045ms total)
T33E8 011:679 JLINK_ReadReg(R2)  returns 0x1FFF91C0 (0003ms, 1049ms total)
T33E8 011:683 JLINK_ReadReg(R3)  returns 0x1FFF91C0 (0002ms, 1052ms total)
T33E8 011:686 JLINK_ReadReg(R4)  returns 0x00002028 (0003ms, 1056ms total)
T33E8 011:690 JLINK_ReadReg(R5)  returns 0x1FFF9160 (0003ms, 1060ms total)
T33E8 011:694 JLINK_ReadReg(R6)  returns 0x00000000 (0003ms, 1064ms total)
T33E8 011:698 JLINK_ReadReg(R7)  returns 0x00000000 (0002ms, 1067ms total)
T33E8 011:702 JLINK_ReadReg(R8)  returns 0x00000000 (0002ms, 1071ms total)
T33E8 011:705 JLINK_ReadReg(R9)  returns 0x00000000 (0003ms, 1075ms total)
T33E8 011:709 JLINK_ReadReg(R10)  returns 0x00002028 (0003ms, 1079ms total)
T33E8 011:713 JLINK_ReadReg(R11)  returns 0x00002028 (0002ms, 1082ms total)
T33E8 011:717 JLINK_ReadReg(R12)  returns 0x00000000 (0001ms, 1084ms total)
T33E8 011:719 JLINK_ReadReg(R13 (SP))  returns 0x1FFF95B0 (0004ms, 1089ms total)
T33E8 011:724 JLINK_ReadReg(R14)  returns 0x00000153 (0002ms, 1092ms total)
T33E8 011:727 JLINK_ReadReg(R15 (PC))  returns 0x00000652 (0003ms, 1096ms total)
T33E8 011:730 JLINK_ReadReg(XPSR)  returns 0x01000000 (0003ms, 1099ms total)
T33E8 011:734 JLINK_ReadReg(MSP)  returns 0x1FFF95B0 (0002ms, 1102ms total)
T33E8 011:738 JLINK_ReadReg(PSP)  returns 0x1FFF8738 (0002ms, 1106ms total)
T33E8 011:741 JLINK_ReadReg(CFBP)  returns 0x00000000 (0003ms, 1110ms total)
T4554 011:745 JLINK_ReadMemEx(0x1FFF95BC, 0x0004 Bytes, ..., Flags = 0x02000000) -- CPU_ReadMem(64 bytes @ 0x1FFF9580) -- Updating C cache (64 bytes @ 0x1FFF9580) -- Read from C cache (4 bytes @ 0x1FFF95BC) - Data: 53 01 00 00  returns 0x04 (0007ms, 1118ms total)
T4554 011:756 JLINK_ReadMemEx(0x0000064C, 0x003C Bytes, ..., Flags = 0x02000000) -- Read from C cache (60 bytes @ 0x0000064C) - Data: 1D 46 F8 E7 1C B5 FF F7 C7 FE FF F7 89 FF 00 20 ...  returns 0x3C (0004ms, 1123ms total)
T33E8 012:287 JLINK_ReadMemEx(0x00000652, 0x0002 Bytes, ..., Flags = 0x02000000) -- Read from C cache (2 bytes @ 0x00000652) - Data: FF F7  returns 0x02 (0005ms, 1129ms total)
T33E8 012:293 JLINK_SetBPEx(Addr = 0x00000656, Type = 0xFFFFFFF2)  returns 0x00000002 (0003ms, 1133ms total)
T33E8 012:297 JLINK_ReadMemEx(0xF0000000, 0x0008 Bytes, ..., Flags = 0x02000004) -- CPU_ReadMem(8 bytes @ 0xF0000000) - Data: E4 F3 01 00 9F 00 00 00  returns 0x08 (0005ms, 1139ms total)
T33E8 012:303 JLINK_Go() -- CPU_WriteMem(4 bytes @ 0xE0002000) -- CPU_ReadMem(4 bytes @ 0xE0001000) -- CPU_WriteMem(4 bytes @ 0xE0001000) -- CPU_WriteMem(4 bytes @ 0xE0002008) -- CPU_WriteMem(4 bytes @ 0xE0001004) (0010ms, 1150ms total)
T33E8 012:415 JLINK_IsHalted()  returns TRUE (0008ms, 1159ms total)
T33E8 012:424 JLINK_Halt()  returns 0x00 (0003ms, 1154ms total)
T33E8 012:427 JLINK_IsHalted()  returns TRUE (0004ms, 1158ms total)
T33E8 012:432 JLINK_IsHalted()  returns TRUE (0003ms, 1157ms total)
T33E8 012:435 JLINK_IsHalted()  returns TRUE (0003ms, 1157ms total)
T33E8 012:439 JLINK_ReadReg(R15 (PC))  returns 0x00000656 (0003ms, 1157ms total)
T33E8 012:443 JLINK_ReadReg(XPSR)  returns 0x41000000 (0003ms, 1161ms total)
T33E8 012:447 JLINK_ClrBPEx(BPHandle = 0x00000002)  returns 0x00 (0003ms, 1165ms total)
T33E8 012:451 JLINK_ReadMemU32(0xE000ED30, 0x0001 Items, ...) -- CPU_ReadMem(4 bytes @ 0xE000ED30) - Data: 02 00 00 00  returns 0x01 (0005ms, 1171ms total)
T33E8 012:457 JLINK_ReadMemU32(0xE0001028, 0x0001 Items, ...) -- CPU_ReadMem(4 bytes @ 0xE0001028) - Data: 00 00 00 00  returns 0x01 (0005ms, 1177ms total)
T33E8 012:463 JLINK_ReadMemU32(0xE0001038, 0x0001 Items, ...) -- CPU_ReadMem(4 bytes @ 0xE0001038) - Data: 00 00 00 00  returns 0x01 (0005ms, 1183ms total)
T33E8 012:469 JLINK_ReadReg(R0)  returns 0x00000000 (0003ms, 1187ms total)
T33E8 012:473 JLINK_ReadReg(R1)  returns 0x40048100 (0003ms, 1191ms total)
T33E8 012:476 JLINK_ReadReg(R2)  returns 0x1FFF91C0 (0003ms, 1194ms total)
T33E8 012:480 JLINK_ReadReg(R3)  returns 0x1FFF91C0 (0002ms, 1197ms total)
T33E8 012:484 JLINK_ReadReg(R4)  returns 0x00002028 (0002ms, 1200ms total)
T33E8 012:487 JLINK_ReadReg(R5)  returns 0x1FFF9160 (0004ms, 1205ms total)
T33E8 012:492 JLINK_ReadReg(R6)  returns 0x00000000 (0002ms, 1208ms total)
T33E8 012:495 JLINK_ReadReg(R7)  returns 0x00000000 (0002ms, 1211ms total)
T33E8 012:498 JLINK_ReadReg(R8)  returns 0x00000000 (0004ms, 1216ms total)
T33E8 012:503 JLINK_ReadReg(R9)  returns 0x00000000 (0002ms, 1219ms total)
T33E8 012:506 JLINK_ReadReg(R10)  returns 0x00002028 (0002ms, 1222ms total)
T33E8 012:509 JLINK_ReadReg(R11)  returns 0x00002028 (0004ms, 1227ms total)
T33E8 012:514 JLINK_ReadReg(R12)  returns 0x00000000 (0003ms, 1231ms total)
T33E8 012:517 JLINK_ReadReg(R13 (SP))  returns 0x1FFF95B0 (0003ms, 1234ms total)
T33E8 012:521 JLINK_ReadReg(R14)  returns 0x00000657 (0003ms, 1238ms total)
T33E8 012:525 JLINK_ReadReg(R15 (PC))  returns 0x00000656 (0002ms, 1241ms total)
T33E8 012:528 JLINK_ReadReg(XPSR)  returns 0x41000000 (0003ms, 1245ms total)
T33E8 012:532 JLINK_ReadReg(MSP)  returns 0x1FFF95B0 (0002ms, 1248ms total)
T33E8 012:535 JLINK_ReadReg(PSP)  returns 0x1FFF8738 (0002ms, 1251ms total)
T33E8 012:538 JLINK_ReadReg(CFBP)  returns 0x00000000 (0004ms, 1256ms total)
T4554 012:543 JLINK_ReadMemEx(0x1FFF95BC, 0x0004 Bytes, ..., Flags = 0x02000000) -- CPU_ReadMem(64 bytes @ 0x1FFF9580) -- Updating C cache (64 bytes @ 0x1FFF9580) -- Read from C cache (4 bytes @ 0x1FFF95BC) - Data: 53 01 00 00  returns 0x04 (0007ms, 1264ms total)
T4554 012:552 JLINK_ReadMemEx(0x00000656, 0x0002 Bytes, ..., Flags = 0x02000000) -- CPU_ReadMem(64 bytes @ 0x00000640) -- Updating C cache (64 bytes @ 0x00000640) -- Read from C cache (2 bytes @ 0x00000656) - Data: FF F7  returns 0x02 (0008ms, 1272ms total)
T4554 012:561 JLINK_ReadMemEx(0x00000658, 0x003C Bytes, ..., Flags = 0x02000000) -- CPU_ReadMem(64 bytes @ 0x00000680) -- Updating C cache (64 bytes @ 0x00000680) -- Read from C cache (60 bytes @ 0x00000658) - Data: 89 FF 00 20 01 21 03 46 82 22 00 91 01 90 09 A1 ...  returns 0x3C (0008ms, 1281ms total)
T4554 012:572 JLINK_ReadMemEx(0x0000064E, 0x0002 Bytes, ..., Flags = 0x02000000) -- Read from C cache (2 bytes @ 0x0000064E) - Data: F8 E7  returns 0x02 (0005ms, 1287ms total)
T4554 012:578 JLINK_ReadMemEx(0x00000650, 0x003C Bytes, ..., Flags = 0x02000000) -- Read from C cache (60 bytes @ 0x00000650) - Data: 1C B5 FF F7 C7 FE FF F7 89 FF 00 20 01 21 03 46 ...  returns 0x3C (0004ms, 1292ms total)
T33E8 012:901 JLINK_ReadMemEx(0x00000656, 0x0002 Bytes, ..., Flags = 0x02000000) -- Read from C cache (2 bytes @ 0x00000656) - Data: FF F7  returns 0x02 (0006ms, 1299ms total)
T33E8 012:908 JLINK_SetBPEx(Addr = 0x0000065A, Type = 0xFFFFFFF2)  returns 0x00000003 (0003ms, 1303ms total)
T33E8 012:912 JLINK_ReadMemEx(0xF0000000, 0x0008 Bytes, ..., Flags = 0x02000004) -- CPU_ReadMem(8 bytes @ 0xF0000000) - Data: E4 F3 01 00 9F 00 00 00  returns 0x08 (0005ms, 1309ms total)
T33E8 012:919 JLINK_Go() -- CPU_WriteMem(4 bytes @ 0xE0002000) -- CPU_ReadMem(4 bytes @ 0xE0001000) -- CPU_WriteMem(4 bytes @ 0xE0001000) -- CPU_WriteMem(4 bytes @ 0xE0002008) (0009ms, 1320ms total)
T33E8 013:029 JLINK_IsHalted()  returns TRUE (0008ms, 1329ms total)
T33E8 013:038 JLINK_Halt()  returns 0x00 (0003ms, 1324ms total)
T33E8 013:042 JLINK_IsHalted()  returns TRUE (0003ms, 1328ms total)
T33E8 013:046 JLINK_IsHalted()  returns TRUE (0003ms, 1328ms total)
T33E8 013:050 JLINK_IsHalted()  returns TRUE (0002ms, 1327ms total)
T33E8 013:053 JLINK_ReadReg(R15 (PC))  returns 0x0000065A (0003ms, 1328ms total)
T33E8 013:057 JLINK_ReadReg(XPSR)  returns 0x61000000 (0003ms, 1332ms total)
T33E8 013:061 JLINK_ClrBPEx(BPHandle = 0x00000003)  returns 0x00 (0002ms, 1335ms total)
T33E8 013:064 JLINK_ReadMemU32(0xE000ED30, 0x0001 Items, ...) -- CPU_ReadMem(4 bytes @ 0xE000ED30) - Data: 02 00 00 00  returns 0x01 (0005ms, 1341ms total)
T33E8 013:070 JLINK_ReadMemU32(0xE0001028, 0x0001 Items, ...) -- CPU_ReadMem(4 bytes @ 0xE0001028) - Data: 00 00 00 00  returns 0x01 (0005ms, 1347ms total)
T33E8 013:076 JLINK_ReadMemU32(0xE0001038, 0x0001 Items, ...) -- CPU_ReadMem(4 bytes @ 0xE0001038) - Data: 00 00 00 00  returns 0x01 (0006ms, 1354ms total)
T33E8 013:083 JLINK_ReadReg(R0)  returns 0x00000000 (0002ms, 1357ms total)
T33E8 013:086 JLINK_ReadReg(R1)  returns 0x00000004 (0003ms, 1361ms total)
T33E8 013:089 JLINK_ReadReg(R2)  returns 0x400FF040 (0003ms, 1364ms total)
T33E8 013:092 JLINK_ReadReg(R3)  returns 0x00001FF8 (0004ms, 1368ms total)
T33E8 013:097 JLINK_ReadReg(R4)  returns 0x00002028 (0002ms, 1371ms total)
T33E8 013:100 JLINK_ReadReg(R5)  returns 0x1FFF9160 (0002ms, 1374ms total)
T33E8 013:104 JLINK_ReadReg(R6)  returns 0x00000000 (0002ms, 1378ms total)
T33E8 013:107 JLINK_ReadReg(R7)  returns 0x00000000 (0003ms, 1382ms total)
T33E8 013:111 JLINK_ReadReg(R8)  returns 0x00000000 (0003ms, 1386ms total)
T33E8 013:114 JLINK_ReadReg(R9)  returns 0x00000000 (0003ms, 1389ms total)
T33E8 013:118 JLINK_ReadReg(R10)  returns 0x00002028 (0003ms, 1393ms total)
T33E8 013:122 JLINK_ReadReg(R11)  returns 0x00002028 (0003ms, 1397ms total)
T33E8 013:125 JLINK_ReadReg(R12)  returns 0x00000000 (0003ms, 1400ms total)
T33E8 013:129 JLINK_ReadReg(R13 (SP))  returns 0x1FFF95B0 (0002ms, 1403ms total)
T33E8 013:132 JLINK_ReadReg(R14)  returns 0x0000065B (0003ms, 1407ms total)
T33E8 013:136 JLINK_ReadReg(R15 (PC))  returns 0x0000065A (0003ms, 1411ms total)
T33E8 013:140 JLINK_ReadReg(XPSR)  returns 0x61000000 (0003ms, 1415ms total)
T33E8 013:144 JLINK_ReadReg(MSP)  returns 0x1FFF95B0 (0003ms, 1419ms total)
T33E8 013:148 JLINK_ReadReg(PSP)  returns 0x1FFF8738 (0002ms, 1422ms total)
T33E8 013:151 JLINK_ReadReg(CFBP)  returns 0x00000000 (0002ms, 1425ms total)
T4554 013:154 JLINK_ReadMemEx(0x1FFF95BC, 0x0004 Bytes, ..., Flags = 0x02000000) -- CPU_ReadMem(64 bytes @ 0x1FFF9580) -- Updating C cache (64 bytes @ 0x1FFF9580) -- Read from C cache (4 bytes @ 0x1FFF95BC) - Data: 53 01 00 00  returns 0x04 (0009ms, 1435ms total)
T4554 013:166 JLINK_ReadMemEx(0x00000656, 0x0002 Bytes, ..., Flags = 0x02000000) -- CPU_ReadMem(64 bytes @ 0x00000640) -- Updating C cache (64 bytes @ 0x00000640) -- Read from C cache (2 bytes @ 0x00000656) - Data: FF F7  returns 0x02 (0008ms, 1443ms total)
T4554 013:175 JLINK_ReadMemEx(0x00000658, 0x003C Bytes, ..., Flags = 0x02000000) -- CPU_ReadMem(64 bytes @ 0x00000680) -- Updating C cache (64 bytes @ 0x00000680) -- Read from C cache (60 bytes @ 0x00000658) - Data: 89 FF 00 20 01 21 03 46 82 22 00 91 01 90 09 A1 ...  returns 0x3C (0008ms, 1452ms total)
T33E8 014:142 JLINK_ReadMemEx(0x0000065A, 0x0002 Bytes, ..., Flags = 0x02000000) -- Read from C cache (2 bytes @ 0x0000065A) - Data: 00 20  returns 0x02 (0005ms, 1458ms total)
T33E8 014:148 JLINK_ReadMemEx(0xF0000000, 0x0008 Bytes, ..., Flags = 0x02000004) -- CPU_ReadMem(8 bytes @ 0xF0000000) - Data: E4 F3 01 00 9F 00 00 00  returns 0x08 (0006ms, 1465ms total)
T33E8 014:154 JLINK_Step() -- Read from C cache (2 bytes @ 0x0000065A) -- CPU_ReadMem(4 bytes @ 0xE0001004) -- Simulated  returns 0x00 (0008ms, 1473ms total)
T33E8 014:163 JLINK_ReadReg(R15 (PC))  returns 0x0000065C (0001ms, 1475ms total)
T33E8 014:165 JLINK_ReadReg(XPSR)  returns 0x61000000 (0003ms, 1479ms total)
T33E8 014:169 JLINK_ReadMemEx(0xF0000000, 0x0008 Bytes, ..., Flags = 0x02000004) -- CPU_ReadMem(8 bytes @ 0xF0000000) - Data: E4 F3 01 00 9F 00 00 00  returns 0x08 (0005ms, 1485ms total)
T33E8 014:175 JLINK_Step() -- Read from C cache (2 bytes @ 0x0000065C) -- Simulated  returns 0x00 (0005ms, 1491ms total)
T33E8 014:181 JLINK_ReadReg(R15 (PC))  returns 0x0000065E (0002ms, 1494ms total)
T33E8 014:184 JLINK_ReadReg(XPSR)  returns 0x21000000 (0004ms, 1499ms total)
T33E8 014:188 JLINK_ReadMemEx(0xF0000000, 0x0008 Bytes, ..., Flags = 0x02000004) -- CPU_ReadMem(8 bytes @ 0xF0000000) - Data: E4 F3 01 00 9F 00 00 00  returns 0x08 (0009ms, 1508ms total)
T33E8 014:198 JLINK_Step() -- Read from C cache (2 bytes @ 0x0000065E) -- Simulated  returns 0x00 (0005ms, 1514ms total)
T33E8 014:203 JLINK_ReadReg(R15 (PC))  returns 0x00000660 (0003ms, 1517ms total)
T33E8 014:207 JLINK_ReadReg(XPSR)  returns 0x21000000 (0003ms, 1521ms total)
T33E8 014:211 JLINK_ReadMemEx(0xF0000000, 0x0008 Bytes, ..., Flags = 0x02000004) -- CPU_ReadMem(8 bytes @ 0xF0000000) - Data: E4 F3 01 00 9F 00 00 00  returns 0x08 (0004ms, 1526ms total)
T33E8 014:216 JLINK_Step() -- Read from C cache (2 bytes @ 0x00000660) -- Simulated  returns 0x00 (0005ms, 1532ms total)
T33E8 014:222 JLINK_ReadReg(R15 (PC))  returns 0x00000662 (0003ms, 1536ms total)
T33E8 014:225 JLINK_ReadReg(XPSR)  returns 0x21000000 (0004ms, 1540ms total)
T33E8 014:230 JLINK_ReadMemEx(0xF0000000, 0x0008 Bytes, ..., Flags = 0x02000004) -- CPU_ReadMem(8 bytes @ 0xF0000000) - Data: E4 F3 01 00 9F 00 00 00  returns 0x08 (0005ms, 1546ms total)
T33E8 014:235 JLINK_Step() -- Read from C cache (2 bytes @ 0x00000662) -- CPU_WriteMem(4 bytes @ 0x1FFF95B0) -- Simulated  returns 0x00 (0006ms, 1552ms total)
T33E8 014:242 JLINK_ReadReg(R15 (PC))  returns 0x00000664 (0002ms, 1555ms total)
T33E8 014:245 JLINK_ReadReg(XPSR)  returns 0x21000000 (0004ms, 1560ms total)
T33E8 014:250 JLINK_ReadMemEx(0xF0000000, 0x0008 Bytes, ..., Flags = 0x02000004) -- CPU_ReadMem(8 bytes @ 0xF0000000) - Data: E4 F3 01 00 9F 00 00 00  returns 0x08 (0004ms, 1565ms total)
T33E8 014:255 JLINK_Step() -- Read from C cache (2 bytes @ 0x00000664) -- CPU_WriteMem(4 bytes @ 0x1FFF95B4) -- Simulated  returns 0x00 (0006ms, 1572ms total)
T33E8 014:262 JLINK_ReadReg(R15 (PC))  returns 0x00000666 (0003ms, 1576ms total)
T33E8 014:266 JLINK_ReadReg(XPSR)  returns 0x21000000 (0003ms, 1580ms total)
T33E8 014:270 JLINK_ReadMemEx(0xF0000000, 0x0008 Bytes, ..., Flags = 0x02000004) -- CPU_ReadMem(8 bytes @ 0xF0000000) - Data: E4 F3 01 00 9F 00 00 00  returns 0x08 (0005ms, 1586ms total)
T33E8 014:277 JLINK_Step() -- Read from C cache (2 bytes @ 0x00000666) -- Simulated  returns 0x00 (0005ms, 1593ms total)
T33E8 014:282 JLINK_ReadReg(R15 (PC))  returns 0x00000668 (0003ms, 1596ms total)
T33E8 014:286 JLINK_ReadReg(XPSR)  returns 0x21000000 (0003ms, 1600ms total)
T33E8 014:290 JLINK_ReadMemEx(0x00000668, 0x003C Bytes, ..., Flags = 0x02000000) -- Read from C cache (60 bytes @ 0x00000668) - Data: 0A 48 01 F0 71 FA 00 20 01 21 03 46 82 22 00 91 ...  returns 0x3C (0004ms, 1605ms total)
T33E8 014:295 JLINK_ReadMemEx(0x00000668, 0x0002 Bytes, ..., Flags = 0x02000000) -- Read from C cache (2 bytes @ 0x00000668) - Data: 0A 48  returns 0x02 (0004ms, 1610ms total)
T33E8 014:300 JLINK_ReadMemEx(0x0000066A, 0x0002 Bytes, ..., Flags = 0x02000000) -- Read from C cache (2 bytes @ 0x0000066A) - Data: 01 F0  returns 0x02 (0004ms, 1615ms total)
T33E8 014:307 JLINK_ReadMemEx(0xF0000000, 0x0008 Bytes, ..., Flags = 0x02000004) -- CPU_ReadMem(8 bytes @ 0xF0000000) - Data: E4 F3 01 00 9F 00 00 00  returns 0x08 (0005ms, 1623ms total)
T33E8 014:313 JLINK_Step() -- Read from C cache (2 bytes @ 0x00000668) -- Read from C cache (4 bytes @ 0x00000694) -- Simulated  returns 0x00 (0005ms, 1629ms total)
T33E8 014:319 JLINK_ReadReg(R15 (PC))  returns 0x0000066A (0003ms, 1633ms total)
T33E8 014:323 JLINK_ReadReg(XPSR)  returns 0x21000000 (0002ms, 1636ms total)
T33E8 014:327 JLINK_ReadMemEx(0x0000066A, 0x0002 Bytes, ..., Flags = 0x02000000) -- Read from C cache (2 bytes @ 0x0000066A) - Data: 01 F0  returns 0x02 (0003ms, 1641ms total)
T33E8 014:332 JLINK_ReadMemEx(0x0000066C, 0x003C Bytes, ..., Flags = 0x02000000) -- Read from C cache (60 bytes @ 0x0000066C) - Data: 71 FA 00 20 01 21 03 46 82 22 00 91 01 90 07 A1 ...  returns 0x3C (0004ms, 1647ms total)
T33E8 014:337 JLINK_ReadMemEx(0x0000066C, 0x0002 Bytes, ..., Flags = 0x02000000) -- Read from C cache (2 bytes @ 0x0000066C) - Data: 71 FA  returns 0x02 (0004ms, 1652ms total)
T33E8 014:342 JLINK_SetBPEx(Addr = 0x0000066E, Type = 0xFFFFFFF2)  returns 0x00000004 (0003ms, 1656ms total)
T33E8 014:346 JLINK_ReadMemEx(0xF0000000, 0x0008 Bytes, ..., Flags = 0x02000004) -- CPU_ReadMem(8 bytes @ 0xF0000000) - Data: E4 F3 01 00 9F 00 00 00  returns 0x08 (0005ms, 1662ms total)
T33E8 014:353 JLINK_Go() -- CPU_WriteMem(4 bytes @ 0xE0002000) -- CPU_ReadMem(4 bytes @ 0xE0001000) -- CPU_WriteMem(4 bytes @ 0xE0001000) -- CPU_WriteMem(4 bytes @ 0xE0002008) -- CPU_WriteMem(4 bytes @ 0xE0001004) (0011ms, 1675ms total)
T33E8 014:465 JLINK_IsHalted()  returns TRUE (0008ms, 1684ms total)
T33E8 014:474 JLINK_Halt()  returns 0x00 (0003ms, 1679ms total)
T33E8 014:478 JLINK_IsHalted()  returns TRUE (0002ms, 1682ms total)
T33E8 014:482 JLINK_IsHalted()  returns TRUE (0003ms, 1683ms total)
T33E8 014:486 JLINK_IsHalted()  returns TRUE (0002ms, 1682ms total)
T33E8 014:489 JLINK_ReadReg(R15 (PC))  returns 0x0000066E (0003ms, 1683ms total)
T33E8 014:493 JLINK_ReadReg(XPSR)  returns 0x21000000 (0003ms, 1687ms total)
T33E8 014:497 JLINK_ClrBPEx(BPHandle = 0x00000004)  returns 0x00 (0003ms, 1691ms total)
T33E8 014:500 JLINK_ReadMemU32(0xE000ED30, 0x0001 Items, ...) -- CPU_ReadMem(4 bytes @ 0xE000ED30) - Data: 02 00 00 00  returns 0x01 (0006ms, 1697ms total)
T33E8 014:506 JLINK_ReadMemU32(0xE0001028, 0x0001 Items, ...) -- CPU_ReadMem(4 bytes @ 0xE0001028) - Data: 00 00 00 00  returns 0x01 (0006ms, 1703ms total)
T33E8 014:513 JLINK_ReadMemU32(0xE0001038, 0x0001 Items, ...) -- CPU_ReadMem(4 bytes @ 0xE0001038) - Data: 00 00 00 00  returns 0x01 (0005ms, 1709ms total)
T33E8 014:518 JLINK_ReadReg(R0)  returns 0x00000001 (0003ms, 1712ms total)
T33E8 014:522 JLINK_ReadReg(R1)  returns 0x1FFF801C (0003ms, 1716ms total)
T33E8 014:526 JLINK_ReadReg(R2)  returns 0x1FFF908C (0002ms, 1719ms total)
T33E8 014:529 JLINK_ReadReg(R3)  returns 0x00000001 (0003ms, 1723ms total)
T33E8 014:533 JLINK_ReadReg(R4)  returns 0x00002028 (0003ms, 1727ms total)
T33E8 014:537 JLINK_ReadReg(R5)  returns 0x1FFF9160 (0002ms, 1730ms total)
T33E8 014:540 JLINK_ReadReg(R6)  returns 0x00000000 (0003ms, 1734ms total)
T33E8 014:544 JLINK_ReadReg(R7)  returns 0x00000000 (0003ms, 1738ms total)
T33E8 014:547 JLINK_ReadReg(R8)  returns 0x00000000 (0003ms, 1741ms total)
T33E8 014:551 JLINK_ReadReg(R9)  returns 0x00000000 (0002ms, 1744ms total)
T33E8 014:554 JLINK_ReadReg(R10)  returns 0x00002028 (0004ms, 1749ms total)
T33E8 014:559 JLINK_ReadReg(R11)  returns 0x00002028 (0003ms, 1753ms total)
T33E8 014:563 JLINK_ReadReg(R12)  returns 0x00000000 (0003ms, 1757ms total)
T33E8 014:567 JLINK_ReadReg(R13 (SP))  returns 0x1FFF95B0 (0002ms, 1760ms total)
T33E8 014:570 JLINK_ReadReg(R14)  returns 0x000007D7 (0003ms, 1764ms total)
T33E8 014:574 JLINK_ReadReg(R15 (PC))  returns 0x0000066E (0003ms, 1768ms total)
T33E8 014:578 JLINK_ReadReg(XPSR)  returns 0x21000000 (0002ms, 1771ms total)
T33E8 014:582 JLINK_ReadReg(MSP)  returns 0x1FFF95B0 (0002ms, 1775ms total)
T33E8 014:585 JLINK_ReadReg(PSP)  returns 0x1FFF8738 (0004ms, 1780ms total)
T33E8 014:590 JLINK_ReadReg(CFBP)  returns 0x00000001 (0003ms, 1784ms total)
T4554 014:594 JLINK_ReadMemEx(0x1FFF95BC, 0x0004 Bytes, ..., Flags = 0x02000000) -- CPU_ReadMem(64 bytes @ 0x1FFF9580) -- Updating C cache (64 bytes @ 0x1FFF9580) -- Read from C cache (4 bytes @ 0x1FFF95BC) - Data: 53 01 00 00  returns 0x04 (0009ms, 1794ms total)
T4554 014:606 JLINK_ReadMemEx(0x0000065A, 0x0002 Bytes, ..., Flags = 0x02000000) -- CPU_ReadMem(64 bytes @ 0x00000640) -- Updating C cache (64 bytes @ 0x00000640) -- Read from C cache (2 bytes @ 0x0000065A) - Data: 00 20  returns 0x02 (0007ms, 1802ms total)
T4554 014:614 JLINK_ReadMemEx(0x0000065C, 0x003C Bytes, ..., Flags = 0x02000000) -- CPU_ReadMem(64 bytes @ 0x00000680) -- Updating C cache (64 bytes @ 0x00000680) -- Read from C cache (60 bytes @ 0x0000065C) - Data: 01 21 03 46 82 22 00 91 01 90 09 A1 0A 48 01 F0 ...  returns 0x3C (0008ms, 1811ms total)
T33E8 023:801 JLINK_ReadMemEx(0x0000066E, 0x0002 Bytes, ..., Flags = 0x02000000) -- Read from C cache (2 bytes @ 0x0000066E) - Data: 00 20  returns 0x02 (0005ms, 1817ms total)
T33E8 023:807 JLINK_ReadMemEx(0xF0000000, 0x0008 Bytes, ..., Flags = 0x02000004) -- CPU_ReadMem(8 bytes @ 0xF0000000) - Data: E4 F3 01 00 9F 00 00 00  returns 0x08 (0005ms, 1823ms total)
T33E8 023:814 JLINK_Step() -- Read from C cache (2 bytes @ 0x0000066E) -- CPU_ReadMem(4 bytes @ 0xE0001004) -- Simulated  returns 0x00 (0006ms, 1831ms total)
T33E8 023:821 JLINK_ReadReg(R15 (PC))  returns 0x00000670 (0003ms, 1835ms total)
T33E8 023:825 JLINK_ReadReg(XPSR)  returns 0x61000000 (0003ms, 1839ms total)
T33E8 023:829 JLINK_ReadMemEx(0xF0000000, 0x0008 Bytes, ..., Flags = 0x02000004) -- CPU_ReadMem(8 bytes @ 0xF0000000) - Data: E4 F3 01 00 9F 00 00 00  returns 0x08 (0005ms, 1845ms total)
T33E8 023:834 JLINK_Step() -- Read from C cache (2 bytes @ 0x00000670) -- Simulated  returns 0x00 (0006ms, 1851ms total)
T33E8 023:841 JLINK_ReadReg(R15 (PC))  returns 0x00000672 (0002ms, 1854ms total)
T33E8 023:844 JLINK_ReadReg(XPSR)  returns 0x21000000 (0003ms, 1858ms total)
T33E8 023:849 JLINK_ReadMemEx(0xF0000000, 0x0008 Bytes, ..., Flags = 0x02000004) -- CPU_ReadMem(8 bytes @ 0xF0000000) - Data: E4 F3 01 00 9F 00 00 00  returns 0x08 (0004ms, 1864ms total)
T33E8 023:855 JLINK_Step() -- Read from C cache (2 bytes @ 0x00000672) -- Simulated  returns 0x00 (0004ms, 1870ms total)
T33E8 023:860 JLINK_ReadReg(R15 (PC))  returns 0x00000674 (0003ms, 1874ms total)
T33E8 023:864 JLINK_ReadReg(XPSR)  returns 0x21000000 (0004ms, 1879ms total)
T33E8 023:868 JLINK_ReadMemEx(0xF0000000, 0x0008 Bytes, ..., Flags = 0x02000004) -- CPU_ReadMem(8 bytes @ 0xF0000000) - Data: E4 F3 01 00 9F 00 00 00  returns 0x08 (0005ms, 1884ms total)
T33E8 023:874 JLINK_Step() -- Read from C cache (2 bytes @ 0x00000674) -- Simulated  returns 0x00 (0005ms, 1890ms total)
T33E8 023:880 JLINK_ReadReg(R15 (PC))  returns 0x00000676 (0003ms, 1894ms total)
T33E8 023:884 JLINK_ReadReg(XPSR)  returns 0x21000000 (0003ms, 1898ms total)
T33E8 023:888 JLINK_ReadMemEx(0xF0000000, 0x0008 Bytes, ..., Flags = 0x02000004) -- CPU_ReadMem(8 bytes @ 0xF0000000) - Data: E4 F3 01 00 9F 00 00 00  returns 0x08 (0004ms, 1903ms total)
T33E8 023:894 JLINK_Step() -- Read from C cache (2 bytes @ 0x00000676) -- CPU_WriteMem(4 bytes @ 0x1FFF95B0) -- Simulated  returns 0x00 (0006ms, 1911ms total)
T33E8 023:901 JLINK_ReadReg(R15 (PC))  returns 0x00000678 (0003ms, 1914ms total)
T33E8 023:905 JLINK_ReadReg(XPSR)  returns 0x21000000 (0003ms, 1918ms total)
T33E8 023:909 JLINK_ReadMemEx(0xF0000000, 0x0008 Bytes, ..., Flags = 0x02000004) -- CPU_ReadMem(8 bytes @ 0xF0000000) - Data: E4 F3 01 00 9F 00 00 00  returns 0x08 (0006ms, 1925ms total)
T33E8 023:916 JLINK_Step() -- Read from C cache (2 bytes @ 0x00000678) -- CPU_WriteMem(4 bytes @ 0x1FFF95B4) -- Simulated  returns 0x00 (0006ms, 1932ms total)
T33E8 023:923 JLINK_ReadReg(R15 (PC))  returns 0x0000067A (0003ms, 1936ms total)
T33E8 023:927 JLINK_ReadReg(XPSR)  returns 0x21000000 (0003ms, 1940ms total)
T33E8 023:931 JLINK_ReadMemEx(0x0000067A, 0x0002 Bytes, ..., Flags = 0x02000000) -- Read from C cache (2 bytes @ 0x0000067A) - Data: 07 A1  returns 0x02 (0005ms, 1945ms total)
T33E8 023:937 JLINK_ReadMemEx(0x0000067C, 0x003C Bytes, ..., Flags = 0x02000000) -- Read from C cache (60 bytes @ 0x0000067C) - Data: 09 48 01 F0 67 FA 00 F0 37 FF 00 BF FE E7 00 00 ...  returns 0x3C (0005ms, 1951ms total)
T33E8 023:943 JLINK_ReadMemEx(0x0000067C, 0x0002 Bytes, ..., Flags = 0x02000000) -- Read from C cache (2 bytes @ 0x0000067C) - Data: 09 48  returns 0x02 (0005ms, 1957ms total)
T33E8 023:949 JLINK_ReadMemEx(0xF0000000, 0x0008 Bytes, ..., Flags = 0x02000004) -- CPU_ReadMem(8 bytes @ 0xF0000000) - Data: E4 F3 01 00 9F 00 00 00  returns 0x08 (0006ms, 1964ms total)
T33E8 023:955 JLINK_Step() -- Read from C cache (2 bytes @ 0x0000067A) -- Simulated  returns 0x00 (0005ms, 1969ms total)
T33E8 023:961 JLINK_ReadReg(R15 (PC))  returns 0x0000067C (0003ms, 1973ms total)
T33E8 023:965 JLINK_ReadReg(XPSR)  returns 0x21000000 (0002ms, 1976ms total)
T33E8 023:968 JLINK_ReadMemEx(0x0000067C, 0x003C Bytes, ..., Flags = 0x02000000) -- Read from C cache (60 bytes @ 0x0000067C) - Data: 09 48 01 F0 67 FA 00 F0 37 FF 00 BF FE E7 00 00 ...  returns 0x3C (0005ms, 1982ms total)
T33E8 023:974 JLINK_ReadMemEx(0x0000067C, 0x0002 Bytes, ..., Flags = 0x02000000) -- Read from C cache (2 bytes @ 0x0000067C) - Data: 09 48  returns 0x02 (0004ms, 1987ms total)
T33E8 023:979 JLINK_ReadMemEx(0x0000067E, 0x0002 Bytes, ..., Flags = 0x02000000) -- Read from C cache (2 bytes @ 0x0000067E) - Data: 01 F0  returns 0x02 (0005ms, 1993ms total)
T33E8 023:985 JLINK_ReadMemEx(0xF0000000, 0x0008 Bytes, ..., Flags = 0x02000004) -- CPU_ReadMem(8 bytes @ 0xF0000000) - Data: E4 F3 01 00 9F 00 00 00  returns 0x08 (0005ms, 1999ms total)
T33E8 023:991 JLINK_Step() -- Read from C cache (2 bytes @ 0x0000067C) -- Read from C cache (4 bytes @ 0x000006A4) -- Simulated  returns 0x00 (0006ms, 2006ms total)
T33E8 023:998 JLINK_ReadReg(R15 (PC))  returns 0x0000067E (0002ms, 2009ms total)
T33E8 024:001 JLINK_ReadReg(XPSR)  returns 0x21000000 (0003ms, 2013ms total)
T33E8 024:005 JLINK_ReadMemEx(0x0000067E, 0x0002 Bytes, ..., Flags = 0x02000000) -- Read from C cache (2 bytes @ 0x0000067E) - Data: 01 F0  returns 0x02 (0005ms, 2019ms total)
T33E8 024:011 JLINK_ReadMemEx(0x00000680, 0x003C Bytes, ..., Flags = 0x02000000) -- Read from C cache (60 bytes @ 0x00000680) - Data: 67 FA 00 F0 37 FF 00 BF FE E7 00 00 54 61 73 6B ...  returns 0x3C (0004ms, 2024ms total)
T33E8 024:016 JLINK_ReadMemEx(0x00000680, 0x0002 Bytes, ..., Flags = 0x02000000) -- Read from C cache (2 bytes @ 0x00000680) - Data: 67 FA  returns 0x02 (0004ms, 2029ms total)
T33E8 024:021 JLINK_SetBPEx(Addr = 0x00000682, Type = 0xFFFFFFF2)  returns 0x00000005 (0003ms, 2033ms total)
T33E8 024:025 JLINK_ReadMemEx(0xF0000000, 0x0008 Bytes, ..., Flags = 0x02000004) -- CPU_ReadMem(8 bytes @ 0xF0000000) - Data: E4 F3 01 00 9F 00 00 00  returns 0x08 (0005ms, 2039ms total)
T33E8 024:031 JLINK_Go() -- CPU_WriteMem(4 bytes @ 0xE0002000) -- CPU_ReadMem(4 bytes @ 0xE0001000) -- CPU_WriteMem(4 bytes @ 0xE0001000) -- CPU_WriteMem(4 bytes @ 0xE0002008) -- CPU_WriteMem(4 bytes @ 0xE0001004) (0013ms, 2053ms total)
T33E8 024:146 JLINK_IsHalted()  returns TRUE (0008ms, 2062ms total)
T33E8 024:155 JLINK_Halt()  returns 0x00 (0002ms, 2056ms total)
T33E8 024:159 JLINK_IsHalted()  returns TRUE (0003ms, 2061ms total)
T33E8 024:163 JLINK_IsHalted()  returns TRUE (0002ms, 2060ms total)
T33E8 024:167 JLINK_IsHalted()  returns TRUE (0003ms, 2061ms total)
T33E8 024:171 JLINK_ReadReg(R15 (PC))  returns 0x00000682 (0002ms, 2060ms total)
T33E8 024:173 JLINK_ReadReg(XPSR)  returns 0x21000000 (0004ms, 2064ms total)
T33E8 024:178 JLINK_ClrBPEx(BPHandle = 0x00000005)  returns 0x00 (0002ms, 2067ms total)
T33E8 024:182 JLINK_ReadMemU32(0xE000ED30, 0x0001 Items, ...) -- CPU_ReadMem(4 bytes @ 0xE000ED30) - Data: 02 00 00 00  returns 0x01 (0004ms, 2073ms total)
T33E8 024:187 JLINK_ReadMemU32(0xE0001028, 0x0001 Items, ...) -- CPU_ReadMem(4 bytes @ 0xE0001028) - Data: 00 00 00 00  returns 0x01 (0006ms, 2080ms total)
T33E8 024:194 JLINK_ReadMemU32(0xE0001038, 0x0001 Items, ...) -- CPU_ReadMem(4 bytes @ 0xE0001038) - Data: 00 00 00 00  returns 0x01 (0005ms, 2086ms total)
T33E8 024:200 JLINK_ReadReg(R0)  returns 0x00000001 (0003ms, 2090ms total)
T33E8 024:204 JLINK_ReadReg(R1)  returns 0x1FFF801C (0003ms, 2094ms total)
T33E8 024:208 JLINK_ReadReg(R2)  returns 0x1FFF908C (0003ms, 2098ms total)
T33E8 024:211 JLINK_ReadReg(R3)  returns 0x00000002 (0004ms, 2102ms total)
T33E8 024:216 JLINK_ReadReg(R4)  returns 0x00002028 (0003ms, 2106ms total)
T33E8 024:220 JLINK_ReadReg(R5)  returns 0x1FFF9160 (0003ms, 2110ms total)
T33E8 024:224 JLINK_ReadReg(R6)  returns 0x00000000 (0003ms, 2114ms total)
T33E8 024:228 JLINK_ReadReg(R7)  returns 0x00000000 (0002ms, 2117ms total)
T33E8 024:231 JLINK_ReadReg(R8)  returns 0x00000000 (0003ms, 2121ms total)
T33E8 024:235 JLINK_ReadReg(R9)  returns 0x00000000 (0002ms, 2124ms total)
T33E8 024:238 JLINK_ReadReg(R10)  returns 0x00002028 (0003ms, 2128ms total)
T33E8 024:242 JLINK_ReadReg(R11)  returns 0x00002028 (0003ms, 2132ms total)
T33E8 024:246 JLINK_ReadReg(R12)  returns 0x00000000 (0003ms, 2136ms total)
T33E8 024:250 JLINK_ReadReg(R13 (SP))  returns 0x1FFF95B0 (0002ms, 2139ms total)
T33E8 024:253 JLINK_ReadReg(R14)  returns 0x000007D7 (0003ms, 2143ms total)
T33E8 024:257 JLINK_ReadReg(R15 (PC))  returns 0x00000682 (0002ms, 2146ms total)
T33E8 024:261 JLINK_ReadReg(XPSR)  returns 0x21000000 (0003ms, 2151ms total)
T33E8 024:265 JLINK_ReadReg(MSP)  returns 0x1FFF95B0 (0002ms, 2154ms total)
T33E8 024:268 JLINK_ReadReg(PSP)  returns 0x1FFF8738 (0003ms, 2158ms total)
T33E8 024:272 JLINK_ReadReg(CFBP)  returns 0x00000001 (0003ms, 2162ms total)
T4554 024:276 JLINK_ReadMemEx(0x1FFF95BC, 0x0004 Bytes, ..., Flags = 0x02000000) -- CPU_ReadMem(64 bytes @ 0x1FFF9580) -- Updating C cache (64 bytes @ 0x1FFF9580) -- Read from C cache (4 bytes @ 0x1FFF95BC) - Data: 53 01 00 00  returns 0x04 (0009ms, 2171ms total)
T4554 024:288 JLINK_ReadMemEx(0x0000066E, 0x0002 Bytes, ..., Flags = 0x02000000) -- CPU_ReadMem(64 bytes @ 0x00000640) -- Updating C cache (64 bytes @ 0x00000640) -- Read from C cache (2 bytes @ 0x0000066E) - Data: 00 20  returns 0x02 (0008ms, 2180ms total)
T4554 024:297 JLINK_ReadMemEx(0x00000670, 0x003C Bytes, ..., Flags = 0x02000000) -- CPU_ReadMem(64 bytes @ 0x00000680) -- Updating C cache (64 bytes @ 0x00000680) -- Read from C cache (60 bytes @ 0x00000670) - Data: 01 21 03 46 82 22 00 91 01 90 07 A1 09 48 01 F0 ...  returns 0x3C (0007ms, 2188ms total)
T33E8 029:369 JLINK_ReadMemEx(0x00000682, 0x0002 Bytes, ..., Flags = 0x02000000) -- Read from C cache (2 bytes @ 0x00000682) - Data: 00 F0  returns 0x02 (0006ms, 2195ms total)
T33E8 029:376 JLINK_ReadMemEx(0xF0000000, 0x0008 Bytes, ..., Flags = 0x02000004) -- CPU_ReadMem(8 bytes @ 0xF0000000) - Data: E4 F3 01 00 9F 00 00 00  returns 0x08 (0005ms, 2201ms total)
T33E8 029:382 JLINK_Step() -- Read from C cache (2 bytes @ 0x00000682) -- CPU_ReadMem(4 bytes @ 0xE0001004) -- Read from C cache (2 bytes @ 0x00000684) -- Simulated  returns 0x00 (0008ms, 2210ms total)
T33E8 029:391 JLINK_ReadReg(R15 (PC))  returns 0x000014F4 (0003ms, 2214ms total)
T33E8 029:395 JLINK_ReadReg(XPSR)  returns 0x21000000 (0002ms, 2217ms total)
T33E8 029:399 JLINK_ReadReg(R0)  returns 0x00000001 (0003ms, 2222ms total)
T33E8 029:403 JLINK_ReadReg(R1)  returns 0x1FFF801C (0001ms, 2224ms total)
T33E8 029:405 JLINK_ReadReg(R2)  returns 0x1FFF908C (0004ms, 2229ms total)
T33E8 029:410 JLINK_ReadReg(R3)  returns 0x00000002 (0003ms, 2233ms total)
T33E8 029:414 JLINK_ReadReg(R4)  returns 0x00002028 (0003ms, 2237ms total)
T33E8 029:418 JLINK_ReadReg(R5)  returns 0x1FFF9160 (0003ms, 2241ms total)
T33E8 029:421 JLINK_ReadReg(R6)  returns 0x00000000 (0003ms, 2244ms total)
T33E8 029:425 JLINK_ReadReg(R7)  returns 0x00000000 (0003ms, 2248ms total)
T33E8 029:429 JLINK_ReadReg(R8)  returns 0x00000000 (0003ms, 2252ms total)
T33E8 029:432 JLINK_ReadReg(R9)  returns 0x00000000 (0003ms, 2255ms total)
T33E8 029:436 JLINK_ReadReg(R10)  returns 0x00002028 (0003ms, 2259ms total)
T33E8 029:440 JLINK_ReadReg(R11)  returns 0x00002028 (0003ms, 2263ms total)
T33E8 029:444 JLINK_ReadReg(R12)  returns 0x00000000 (0002ms, 2266ms total)
T33E8 029:447 JLINK_ReadReg(R13 (SP))  returns 0x1FFF95B0 (0003ms, 2270ms total)
T33E8 029:451 JLINK_ReadReg(R14)  returns 0x00000687 (0003ms, 2274ms total)
T33E8 029:455 JLINK_ReadReg(R15 (PC))  returns 0x000014F4 (0003ms, 2278ms total)
T33E8 029:459 JLINK_ReadReg(XPSR)  returns 0x21000000 (0002ms, 2281ms total)
T33E8 029:463 JLINK_ReadReg(MSP)  returns 0x1FFF95B0 (0002ms, 2285ms total)
